!Agilent Technologies,N5247A,US51370340,A.09.90.02
!Agilent N5247A: A.09.90.02
!Date: Friday, May 26, 2017 15:59:58
!Correction: S22(Off) 
!S1P File: Measurement: S22:
# Hz S RI R 50
2000000000.0 -0.76941431 -0.65247685
2010000000.0 -0.81943876 -0.58455074
2020000000.0 -0.84475869 -0.54423416
2030000000.0 -0.86751407 -0.502087
2040000000.0 -0.88708138 -0.45836052
2050000000.0 -0.90300804 -0.41365173
2060000000.0 -0.91505384 -0.36886069
2070000000.0 -0.92339528 -0.32508534
2080000000.0 -0.92861587 -0.28321218
2090000000.0 -0.93164951 -0.24379346
2100000000.0 -0.9336158 -0.20681588
2110000000.0 -0.93559885 -0.17189635
2120000000.0 -0.93840545 -0.13846146
2130000000.0 -0.94254351 -0.10575176
2140000000.0 -0.94816387 -0.072643325
2150000000.0 -0.95507276 -0.038082536
2160000000.0 -0.962659 -0.0010600514
2170000000.0 -0.96989805 0.03937294
2180000000.0 -0.97531289 0.083402172
2190000000.0 -0.97747374 0.13075493
2200000000.0 -0.97501063 0.18052645
2210000000.0 -0.96708673 0.23106058
2220000000.0 -0.95366365 0.28075752
2230000000.0 -0.93541372 0.32809493
2240000000.0 -0.91353887 0.37189743
2250000000.0 -0.88958162 0.41183466
2260000000.0 -0.86408728 0.44745588
2270000000.0 -0.83871889 0.48021543
2280000000.0 -0.81410825 0.51114011
2290000000.0 -0.79037839 0.54116344
2300000000.0 -0.7674619 0.57085115
2310000000.0 -0.74495929 0.60090703
2320000000.0 -0.72206837 0.63180453
2330000000.0 -0.69787371 0.66365892
2340000000.0 -0.67120564 0.69642645
2350000000.0 -0.64114922 0.72943264
2360000000.0 -0.60749292 0.76139361
2370000000.0 -0.57058752 0.79094571
2380000000.0 -0.53130764 0.81712216
2390000000.0 -0.49093851 0.83948648
2400000000.0 -0.45071959 0.85840487
2410000000.0 -0.4115544 0.87482941
2420000000.0 -0.37364277 0.89001697
2430000000.0 -0.33660302 0.9051801
2440000000.0 -0.29959843 0.92113733
2450000000.0 -0.26135993 0.93814695
2460000000.0 -0.22040255 0.95572245
2470000000.0 -0.17560095 0.97258562
2480000000.0 -0.12648551 0.98709768
2490000000.0 -0.073854893 0.99737537
2500000000.0 -0.019265411 1.0019974
2510000000.0 0.035006247 1.0001516
2520000000.0 0.087902762 0.99252218
2530000000.0 0.13777716 0.98027402
2540000000.0 0.18400544 0.96478641
2550000000.0 0.2265535 0.94734854
2560000000.0 0.26592594 0.92914838
2570000000.0 0.30288997 0.91089034
2580000000.0 0.33815718 0.89282489
2590000000.0 0.37235954 0.87495941
2600000000.0 0.40599421 0.85687733
2610000000.0 0.43934503 0.83804458
2620000000.0 0.47234958 0.81795311
2630000000.0 0.50455678 0.79633474
2640000000.0 0.53534174 0.77310807
2650000000.0 0.56422508 0.74877399
2660000000.0 0.59075081 0.72423655
2670000000.0 0.61507499 0.7005111
2680000000.0 0.63806587 0.67841512
2690000000.0 0.66089422 0.6584847
2700000000.0 0.68509352 0.64051706
2710000000.0 0.71215308 0.62356174
2720000000.0 0.74309587 0.60598552
2730000000.0 0.77808857 0.5860002
2740000000.0 0.81645912 0.56147933
2750000000.0 0.85675621 0.53034097
2760000000.0 0.89615947 0.4915053
2770000000.0 0.93179125 0.44471842
2780000000.0 0.96062064 0.39138371
2790000000.0 0.98048824 0.33429408
2800000000.0 0.99074548 0.2769337
2810000000.0 0.99243993 0.22264957
2820000000.0 0.98784417 0.17391737
2830000000.0 0.97985011 0.1319076
2840000000.0 0.9712286 0.096644409
2850000000.0 0.96456444 0.067242831
2860000000.0 0.96191657 0.04202811
2870000000.0 0.96475244 0.018807033
2880000000.0 0.97389078 -0.0052207964
2890000000.0 0.98902941 -0.033221569
2900000000.0 1.0085229 -0.068363555
2910000000.0 1.0292088 -0.11328823
2920000000.0 1.0464836 -0.16919823
2930000000.0 1.0550326 -0.23484837
2940000000.0 1.0505699 -0.30620694
2950000000.0 1.0313752 -0.37723485
2960000000.0 0.99922293 -0.44173202
2970000000.0 0.95870751 -0.49568808
2980000000.0 0.91510129 -0.5384168
2990000000.0 0.87258881 -0.57170337
3000000000.0 0.83361048 -0.59861386
3010000000.0 0.80054486 -0.62236398
3020000000.0 0.77172059 -0.64547998
3030000000.0 0.74606633 -0.669231
3040000000.0 0.72200996 -0.6948964
3050000000.0 0.69775927 -0.72311997
3060000000.0 0.67052811 -0.75478196
3070000000.0 0.63930756 -0.78802365
3080000000.0 0.60245067 -0.82105047
3090000000.0 0.55957925 -0.85118073
3100000000.0 0.51173937 -0.87564492
3110000000.0 0.46086842 -0.89096141
3120000000.0 0.41105163 -0.8981427
3130000000.0 0.36522803 -0.89854252
3140000000.0 0.32540789 -0.89470339
3150000000.0 0.29211101 -0.88957256
3160000000.0 0.26494861 -0.88378853
3170000000.0 0.24191108 -0.88128895
3180000000.0 0.22095272 -0.88304228
3190000000.0 0.20004061 -0.88917595
3200000000.0 0.17744003 -0.89918053
3210000000.0 0.18625388 -0.90517181
3220000000.0 0.15701461 -0.92198646
3230000000.0 0.12287046 -0.93936688
3240000000.0 0.083438739 -0.9557963
3250000000.0 0.038814258 -0.96951503
3260000000.0 -0.010201086 -0.97879261
3270000000.0 -0.062145561 -0.98213542
3280000000.0 -0.11481424 -0.97860652
3290000000.0 -0.16588128 -0.96863359
3300000000.0 -0.21316074 -0.95416361
3310000000.0 -0.25606495 -0.93659347
3320000000.0 -0.2946834 -0.91803664
3330000000.0 -0.33014438 -0.90007931
3340000000.0 -0.36416763 -0.88351822
3350000000.0 -0.39869535 -0.86808354
3360000000.0 -0.43481275 -0.8530212
3370000000.0 -0.47300011 -0.83714402
3380000000.0 -0.51322776 -0.81907094
3390000000.0 -0.55519968 -0.79723334
3400000000.0 -0.59749979 -0.77066618
3410000000.0 -0.63848948 -0.73897707
3420000000.0 -0.67671102 -0.7024048
3430000000.0 -0.71089298 -0.66164559
3440000000.0 -0.74006516 -0.6177761
3450000000.0 -0.76356047 -0.57226431
3460000000.0 -0.78120989 -0.52682656
3470000000.0 -0.79380268 -0.48272952
3480000000.0 -0.80283028 -0.44110653
3490000000.0 -0.80889308 -0.40345937
3500000000.0 -0.81381291 -0.37014139
3510000000.0 -0.81924081 -0.34088403
3520000000.0 -0.82667828 -0.31469274
3530000000.0 -0.83709311 -0.29005882
3540000000.0 -0.8507418 -0.26527107
3550000000.0 -0.86748374 -0.23885947
3560000000.0 -0.88655996 -0.20965272
3570000000.0 -0.90690225 -0.1768017
3580000000.0 -0.92739129 -0.13972749
3590000000.0 -0.94691235 -0.098322012
3600000000.0 -0.9644109 -0.052801423
3610000000.0 -0.97911173 -0.0033771629
3620000000.0 -0.9901042 0.049615081
3630000000.0 -0.9964534 0.10552824
3640000000.0 -0.99735492 0.16347396
3650000000.0 -0.99171019 0.22171937
3660000000.0 -0.97967517 0.27876565
3670000000.0 -0.96240395 0.33374438
3680000000.0 -0.9407177 0.38587019
3690000000.0 -0.91539705 0.43494469
3700000000.0 -0.88708287 0.48084489
3710000000.0 -0.8563301 0.52353412
3720000000.0 -0.82344431 0.56285906
3730000000.0 -0.78901869 0.59863365
3740000000.0 -0.75312936 0.63116437
3750000000.0 -0.71678901 0.66014224
3760000000.0 -0.68107653 0.68564248
3770000000.0 -0.64663196 0.7083925
3780000000.0 -0.61367315 0.72939807
3790000000.0 -0.58198333 0.74962771
3800000000.0 -0.55109334 0.7698822
3810000000.0 -0.52042735 0.79043698
3820000000.0 -0.48961306 0.8111605
3830000000.0 -0.45888811 0.83256567
3840000000.0 -0.42745388 0.85420895
3850000000.0 -0.39476383 0.87601554
3860000000.0 -0.36036012 0.89805305
3870000000.0 -0.32355967 0.92013663
3880000000.0 -0.28364179 0.94172657
3890000000.0 -0.2400538 0.96178365
3900000000.0 -0.19269416 0.97894245
3910000000.0 -0.14207451 0.99177837
3920000000.0 -0.090557337 0.99953198
3930000000.0 -0.038741037 1.0015416
3940000000.0 0.011906475 0.99800444
3950000000.0 0.060026582 0.9897117
3960000000.0 0.10484595 0.97780138
3970000000.0 0.14604457 0.96328026
3980000000.0 0.18356475 0.94712967
3990000000.0 0.21742554 0.93027544
4000000000.0 0.24783771 0.9135046
4010000000.0 0.27251104 0.89813411
4020000000.0 0.29843593 0.88386744
4030000000.0 0.32286313 0.87243414
4040000000.0 0.34728482 0.86431307
4050000000.0 0.37346447 0.85943162
4060000000.0 0.40313548 0.85684383
4070000000.0 0.43757087 0.85491294
4080000000.0 0.47737738 0.85175723
4090000000.0 0.52220047 0.84526801
4100000000.0 0.57108086 0.83357483
4110000000.0 0.62247306 0.81542456
4120000000.0 0.67454958 0.78997886
4130000000.0 0.72543311 0.7570222
4140000000.0 0.77329904 0.71696651
4150000000.0 0.81653261 0.67059028
4160000000.0 0.85375667 0.61894882
4170000000.0 0.88368398 0.56371135
4180000000.0 0.90573788 0.50677663
4190000000.0 0.92005002 0.4503389
4200000000.0 0.92747396 0.39632553
4210000000.0 0.92955148 0.34628543
4220000000.0 0.92821813 0.30090907
4230000000.0 0.92534947 0.26008463
4240000000.0 0.92247516 0.22308129
4250000000.0 0.9205125 0.18870859
4260000000.0 0.91974652 0.1557035
4270000000.0 0.91992933 0.12318008
4280000000.0 0.92073566 0.090562381
4290000000.0 0.92171371 0.05759595
4300000000.0 0.92277867 0.024551045
4310000000.0 0.92388046 -0.0084492546
4320000000.0 0.92497116 -0.041953065
4330000000.0 0.92617673 -0.076212466
4340000000.0 0.92741185 -0.11153533
4350000000.0 0.92847538 -0.14848129
4360000000.0 0.92896014 -0.18736653
4370000000.0 0.92835474 -0.22862171
4380000000.0 0.92600965 -0.2726638
4390000000.0 0.92109036 -0.31980509
4400000000.0 0.91249084 -0.37000343
4410000000.0 0.89878494 -0.42272735
4420000000.0 0.8785879 -0.47669822
4430000000.0 0.85080034 -0.52978384
4440000000.0 0.81546199 -0.57930934
4450000000.0 0.77368796 -0.62296945
4460000000.0 0.72823501 -0.65895396
4470000000.0 0.68241984 -0.68689036
4480000000.0 0.63895285 -0.70822948
4490000000.0 0.59948337 -0.72523427
4500000000.0 0.56423557 -0.740385
4510000000.0 0.53237075 -0.75583732
4520000000.0 0.50236017 -0.77289885
4530000000.0 0.47258157 -0.79192275
4540000000.0 0.4416779 -0.81260335
4550000000.0 0.40880677 -0.83428133
4560000000.0 0.37348387 -0.85614854
4570000000.0 0.33540735 -0.87764841
4580000000.0 0.29424882 -0.89818424
4590000000.0 0.24962252 -0.91707295
4600000000.0 0.20105608 -0.93314105
4610000000.0 0.14907381 -0.94480389
4620000000.0 0.094970927 -0.95042366
4630000000.0 0.040934686 -0.94907016
4640000000.0 -0.010474031 -0.9411388
4650000000.0 -0.05704008 -0.92822737
4660000000.0 -0.097665094 -0.91306233
4670000000.0 -0.13274902 -0.89838505
4680000000.0 -0.16390553 -0.88640368
4690000000.0 -0.19368169 -0.87816536
4700000000.0 -0.22472242 -0.87324536
4710000000.0 -0.2590639 -0.87001103
4720000000.0 -0.29755521 -0.86599553
4730000000.0 -0.33955878 -0.85878813
4740000000.0 -0.383046 -0.8467319
4750000000.0 -0.42522588 -0.82987595
4760000000.0 -0.4645111 -0.80901146
4770000000.0 -0.499962 -0.78611428
4780000000.0 -0.53198963 -0.76313269
4790000000.0 -0.56171066 -0.74125892
4800000000.0 -0.59050584 -0.72075832
4810000000.0 -0.61938888 -0.70137447
4820000000.0 -0.64903474 -0.68254471
4830000000.0 -0.6797455 -0.66398036
4840000000.0 -0.71218055 -0.64552653
4850000000.0 -0.74727756 -0.62680304
4860000000.0 -0.78627253 -0.60657948
4870000000.0 -0.83015978 -0.5825845
4880000000.0 -0.87861681 -0.55138588
4890000000.0 -0.92906052 -0.50916797
4900000000.0 -0.97636396 -0.45350033
4910000000.0 -1.0141183 -0.38616911
4920000000.0 -1.0374571 -0.31217828
4930000000.0 -1.0452151 -0.2386834
4940000000.0 -1.040365 -0.17199565
4950000000.0 -1.0285257 -0.11541872
4960000000.0 -1.0153884 -0.068643719
4970000000.0 -1.0051403 -0.028812118
4980000000.0 -0.99948269 0.0082343426
4990000000.0 -0.99771595 0.04625861
5000000000.0 -0.99747515 0.087886974
5010000000.0 -0.99568307 0.13404785
5020000000.0 -0.98938209 0.18383682
5030000000.0 -0.9765473 0.23505776
5040000000.0 -0.95685935 0.28474241
5050000000.0 -0.93125594 0.33033413
5060000000.0 -0.90155125 0.37015793
5070000000.0 -0.86990607 0.40369529
5080000000.0 -0.83831441 0.43127498
5090000000.0 -0.80811459 0.45352665
5100000000.0 -0.78047866 0.47130752
5110000000.0 -0.75639772 0.48553446
5120000000.0 -0.7368086 0.49741182
5130000000.0 -0.72246206 0.50862229
5140000000.0 -0.71353608 0.52133226
5150000000.0 -0.70939118 0.53787661
5160000000.0 -0.70842493 0.56042975
5170000000.0 -0.70789337 0.59064162
5180000000.0 -0.7043702 0.62902462
5190000000.0 -0.69460714 0.67431235
5200000000.0 -0.67557943 0.72389489
5210000000.0 -0.64564413 0.77391201
5220000000.0 -0.60550773 0.82010263
5230000000.0 -0.55752486 0.85917532
5240000000.0 -0.50505173 0.88960177
5250000000.0 -0.45123991 0.91149247
5260000000.0 -0.39838654 0.92606455
5270000000.0 -0.34784049 0.93488926
5280000000.0 -0.30016461 0.93936044
5290000000.0 -0.2557458 0.94068563
5300000000.0 -0.21478537 0.93990946
5310000000.0 -0.17721641 0.93826723
5320000000.0 -0.1427189 0.93713957
5330000000.0 -0.11022821 0.93769938
5340000000.0 -0.06659551 0.94152999
5350000000.0 -0.033272363 0.94660836
5360000000.0 0.0030111233 0.9533267
5370000000.0 0.043400999 0.96015298
5380000000.0 0.088124774 0.96515715
5390000000.0 0.13662423 0.96657264
5400000000.0 0.1876746 0.96302497
5410000000.0 0.23975651 0.95398939
5420000000.0 0.29154027 0.93941921
5430000000.0 0.34198594 0.91963309
5440000000.0 0.3901512 0.89522809
5450000000.0 0.43541953 0.86657834
5460000000.0 0.47693157 0.83412713
5470000000.0 0.51383579 0.79858685
5480000000.0 0.545533 0.76120389
5490000000.0 0.57185817 0.72341031
5500000000.0 0.59322852 0.68673277
5510000000.0 0.61068338 0.6524272
5520000000.0 0.62553763 0.62125844
5530000000.0 0.63908195 0.59337914
5540000000.0 0.65268397 0.56833988
5550000000.0 0.66708964 0.54556954
5560000000.0 0.68276429 0.52449363
5570000000.0 0.70011473 0.50454783
5580000000.0 0.71949494 0.48530972
5590000000.0 0.74131882 0.46632782
5600000000.0 0.76606625 0.44702184
5610000000.0 0.79427087 0.42655823
5620000000.0 0.8263495 0.40366924
5630000000.0 0.86239243 0.37667945
5640000000.0 0.90175205 0.34327301
5650000000.0 0.94291013 0.30116186
5660000000.0 0.98358864 0.24904455
5670000000.0 1.0203636 0.18611319
5680000000.0 1.049323 0.11297651
5690000000.0 1.0667017 0.031917389
5700000000.0 1.0698227 -0.05308551
5710000000.0 1.057883 -0.13724481
5720000000.0 1.0321683 -0.21572042
5730000000.0 0.99583107 -0.28493869
5740000000.0 0.95276999 -0.34291655
5750000000.0 0.9068172 -0.38912958
5760000000.0 0.86164874 -0.42503262
5770000000.0 0.81959683 -0.4524394
5780000000.0 0.78220952 -0.4734357
5790000000.0 0.7503978 -0.49028483
5800000000.0 0.72435933 -0.50536871
5810000000.0 0.70372075 -0.520841
5820000000.0 0.68754888 -0.53871661
5830000000.0 0.67417681 -0.5605557
5840000000.0 0.66157401 -0.58711392
5850000000.0 0.64870811 -0.61763924
5860000000.0 0.63177729 -0.65209222
5870000000.0 0.60911876 -0.68855578
5880000000.0 0.58005339 -0.72449702
5890000000.0 0.54505825 -0.75725263
5900000000.0 0.50592524 -0.78485066
5910000000.0 0.46499476 -0.80631262
5920000000.0 0.42462033 -0.8219018
5930000000.0 0.3866162 -0.83270776
5940000000.0 0.35208726 -0.84034836
5950000000.0 0.32176894 -0.8469972
5960000000.0 0.29537407 -0.85375035
5970000000.0 0.27241156 -0.86209995
5980000000.0 0.2522499 -0.87352872
5990000000.0 0.23360167 -0.88952231
6000000000.0 0.21461898 -0.91129869
