!Agilent Technologies,N5247A,US51370340,A.09.90.02
!Agilent N5247A: A.09.90.02
!Date: Wednesday, May 31, 2017 18:14:30
!Correction: S22(Off) 
!S42(Off) 
!S24(Off) 
!S44(Off) 
!S2P File: Measurements: S22, S42, S24, S44:
# Hz S  RI   R 50
2000000000 -0.047737878 0.054413881 0.45127124 0.70493931 -0.15260653 -0.81969655 -0.0055105234 0.030835325
2010000000 0.019358343 0.040634748 0.67839825 0.4861353 -0.45150965 -0.69785959 0.045539897 -0.0065927966
2020000000 0.032281823 -0.016717788 0.80059093 0.23046283 -0.6634602 -0.4980574 0.021483786 -0.059113652
2030000000 -0.0099283988 -0.046468403 0.83064747 -0.050796077 -0.7938565 -0.23797047 -0.033498608 -0.049594674
2040000000 -0.05046593 -0.017916145 0.76468623 -0.3257587 -0.82665414 0.051659122 -0.043549236 0.0040422985
2050000000 -0.037546284 0.033629611 0.61043346 -0.56170535 -0.75657159 0.3350063 -0.0012799811 0.035368238
2060000000 0.020443574 0.044462774 0.3871364 -0.73166227 -0.59261769 0.57594597 0.045020044 0.014317811
2070000000 0.058483496 -0.0057355128 0.12074595 -0.81751239 -0.35578433 0.74486321 0.048568577 -0.036665406
2080000000 0.030251183 -0.061407976 -0.15876321 -0.80947608 -0.07546065 0.82102495 0.0013008199 -0.063045241
2090000000 -0.026872627 -0.057819359 -0.4184221 -0.70872647 0.21288005 0.79517728 -0.045004312 -0.02614172
2100000000 -0.040815506 -0.0096459538 -0.62924123 -0.52865517 0.47361493 0.6725558 -0.025827121 0.034849346
2110000000 -0.0041151773 0.015357122 -0.76919061 -0.28899816 0.67764401 0.4683795 0.039106261 0.038244292
2120000000 0.029603813 -0.0070752185 -0.82123947 -0.015588295 0.79957283 0.20418903 0.061085928 -0.017807692
2130000000 0.028262677 -0.044105049 -0.7782895 0.25905755 0.82079649 -0.08663784 0.019825889 -0.046635732
2140000000 0.0015320753 -0.066878699 -0.64672256 0.50262439 0.73954171 -0.36596298 -0.0063702296 -0.015483241
2150000000 -0.035677586 -0.064956948 -0.44301173 0.68860632 0.56612378 -0.59963793 0.022471432 0.0086939652
2160000000 -0.060931057 -0.03192132 -0.18922037 0.79832131 0.32269698 -0.75694537 0.051943135 -0.017740902
2170000000 -0.044680726 0.0078130877 0.08968094 0.81779349 0.042326443 -0.82032174 0.037880898 -0.055152867
2180000000 -0.0058388272 0.0049178181 0.35982776 0.73956031 -0.2425136 -0.78540593 0.0019478804 -0.063739389
2190000000 -0.0080023864 -0.030243931 0.58498764 0.57525957 -0.49998802 -0.6549961 -0.02823334 -0.046047285
2200000000 -0.050350219 -0.023904331 0.74277198 0.34780139 -0.69851124 -0.44160873 -0.04013807 -0.0083408216
2210000000 -0.050427195 0.034860753 0.81672508 0.079334661 -0.80917346 -0.16934691 -0.012274477 0.031126589
2220000000 0.018103365 0.057035144 0.79440445 -0.1981865 -0.81479251 0.12225056 0.043083575 0.02339635
2230000000 0.066541046 -0.0023058408 0.68216634 -0.44952714 -0.7221275 0.39411044 0.057247225 -0.035445567
2240000000 0.031145293 -0.065560736 0.49535087 -0.65088671 -0.54352665 0.62111497 0.0044080438 -0.068681218
2250000000 -0.031159727 -0.055162434 0.25030065 -0.78071892 -0.29289722 0.77313083 -0.041291598 -0.029527878
2260000000 -0.039225951 -0.0027069508 -0.025711779 -0.8195129 -0.0059807617 0.82465094 -0.019555265 0.017613707
2270000000 2.5112986e-005 0.019624889 -0.29830366 -0.76305723 0.27898344 0.77532959 0.018804854 0.0086610243
2280000000 0.034214258 -0.0009951985 -0.53641987 -0.61831039 0.53071803 0.63064629 0.013015377 -0.019302083
2290000000 0.039728753 -0.038938176 -0.71168447 -0.40177089 0.71516955 0.40663281 -0.010634926 -0.01292955
2300000000 0.013484178 -0.071358554 -0.80288118 -0.14037551 0.81016767 0.13453548 -0.0092294551 0.00940606
2310000000 -0.034117881 -0.070518315 -0.80177832 0.13361341 0.8067618 -0.15382704 0.0048272619 0.017853376
2320000000 -0.060509112 -0.025902953 -0.71220589 0.3909502 0.70368445 -0.4239679 0.017198779 0.022011274
2330000000 -0.031536549 0.017989151 -0.54226834 0.60678333 0.51340026 -0.64160645 0.040281869 0.019553063
2340000000 0.018294215 0.0070961057 -0.30699819 0.75398308 0.25887889 -0.7789405 0.057494693 -0.011094841
2350000000 0.024007939 -0.042361673 -0.036884904 0.81166345 -0.026164608 -0.81800085 0.034363624 -0.045749351
2360000000 -0.020330779 -0.066541083 0.234479 0.77681667 -0.30541646 -0.75853091 -0.005845889 -0.038601425
2370000000 -0.064638093 -0.038279481 0.47975382 0.65543741 -0.54927313 -0.60758895 -0.012004394 -0.0057757557
2380000000 -0.067340739 0.017072437 0.67273659 0.4580307 -0.72582078 -0.38005042 0.0075093298 0.0036036882
2390000000 -0.022633538 0.055967797 0.78824031 0.20503929 -0.81188351 -0.10696267 0.011140528 -0.005736745
2400000000 0.038908094 0.042700745 0.81047893 -0.07231573 -0.80002213 0.17874846 0.0049762614 -0.0015093184
2410000000 0.061374851 -0.017123219 0.73786396 -0.33933622 -0.69004697 0.4444598 0.013832027 0.0057758647
2420000000 0.021271287 -0.062166762 0.58140451 -0.56508076 -0.49421391 0.65630788 0.022751501 -0.0036814425
2430000000 -0.02840565 -0.044811014 0.36033455 -0.72579545 -0.23629619 0.78840202 0.016488319 -0.012745312
2440000000 -0.026836731 -0.0021722298 0.098460108 -0.80484712 0.053164519 0.82287043 0.012323084 -0.013197575
2450000000 0.0044211224 0.0034042317 -0.17589203 -0.79208559 0.33715281 0.75371921 0.0070928559 -0.023458423
2460000000 0.0096496763 -0.015958359 -0.43012109 -0.6879577 0.57966381 0.58932465 -0.023776779 -0.025915563
2470000000 -0.00038565364 -0.013936915 -0.63549882 -0.50524473 0.74887055 0.34966755 -0.049782559 0.017350018
2480000000 0.01361943 -0.0064816978 -0.7689538 -0.26239303 0.82230359 0.067583889 -0.014757058 0.07006339
2490000000 0.027663257 -0.031121919 -0.81082898 0.012282494 0.79440415 -0.21963392 0.049405176 0.059085011
2500000000 0.0012353497 -0.057592452 -0.75767034 0.28178179 0.67096072 -0.4800849 0.059926309 0.0038115268
2510000000 -0.03451658 -0.040558003 -0.62090343 0.51703316 0.46400505 -0.68367749 0.021881433 -0.012898707
2520000000 -0.031146724 -0.0067060259 -0.41326135 0.69498318 0.19720502 -0.80253839 0.010976591 0.014017574
2530000000 -0.009116997 -0.0034175955 -0.15679893 0.79241717 -0.093363136 -0.82004994 0.036216971 0.018656014
2540000000 -0.010461791 -0.014743526 0.11645062 0.79807973 -0.37036142 -0.73666388 0.040699013 -0.007939768
2550000000 -0.021027327 -0.005646178 0.37571099 0.71292466 -0.6018948 -0.56360722 0.016127013 -0.016339302
2560000000 -0.012183839 0.0098797027 0.59154397 0.54617447 -0.75964355 -0.32049268 0.0045136195 0.0021996349
2570000000 0.0022675709 0.0092762364 0.73897409 0.31778118 -0.82302034 -0.037557457 0.01563926 0.015204743
2580000000 0.0071251439 0.0059658512 0.80242598 0.053671531 -0.78447032 0.24928679 0.030084437 0.012969566
2590000000 0.017052773 0.0058841077 0.77421749 -0.21680535 -0.64949912 0.50465155 0.041793674 -0.0013629923
2600000000 0.028485501 -0.010535098 0.65786046 -0.46195436 -0.43474069 0.69763047 0.036718328 -0.031512447
2610000000 0.013105338 -0.033136699 0.46758553 -0.6549108 -0.16584678 0.80466861 -0.0057266043 -0.049583457
2620000000 -0.017862419 -0.023170264 0.22312203 -0.77454007 0.12436427 0.8114832 -0.051992055 -0.013486355
2630000000 -0.017128617 0.013016227 -0.048574891 -0.80477142 0.39850706 0.71638727 -0.039767615 0.048408348
2640000000 0.017959001 0.025169702 -0.31402898 -0.74148101 0.62127948 0.53227967 0.016729334 0.061643034
2650000000 0.041986518 0.00075902673 -0.54251307 -0.59397703 0.76584119 0.2836003 0.043019354 0.023264391
2660000000 0.035841189 -0.027121324 -0.7093488 -0.37899885 0.8156786 0.0011480168 0.02313553 -0.0037160066
2670000000 0.015737575 -0.040080398 -0.79504985 -0.11927595 0.7651841 -0.27976272 0.0017947542 6.4335531e-005
2680000000 -0.0099140471 -0.03788555 -0.78812879 0.15386687 0.62108654 -0.52613223 -0.010004955 0.0087479083
2690000000 -0.03037522 -0.01130332 -0.68962449 0.40732649 0.40036181 -0.70804602 -0.02493535 0.029822854
2700000000 -0.016144957 0.028230304 -0.51412046 0.61086941 0.13021503 -0.80143225 -0.011965889 0.073223032
2710000000 0.030812541 0.03485027 -0.28424618 0.74632168 -0.15339904 -0.79659277 0.048047397 0.087141745
2720000000 0.05724448 -0.0057645836 -0.019888174 0.80174661 -0.4201642 -0.69676554 0.092879221 0.034140442
2730000000 0.031908937 -0.043333966 0.25228277 0.76322699 -0.6390301 -0.50671446 0.064793035 -0.026259854
2740000000 -0.0064208047 -0.035781547 0.49324819 0.63206297 -0.77367985 -0.24977224 0.01097435 -0.02298806
2750000000 -0.014871866 -0.0057942071 0.67321509 0.430253 -0.8091495 0.033753771 0.0035473704 0.012624798
2760000000 -0.00092338293 0.012776632 0.77682561 0.18209212 -0.74650258 0.31123856 0.024855245 0.017536372
2770000000 0.017054055 0.018403782 0.79289347 -0.086746149 -0.59111744 0.54986691 0.025118161 0.0016873349
2780000000 0.037371177 0.012677066 0.71848017 -0.34640363 -0.36401618 0.7184462 0.012726229 0.0016266237
2790000000 0.049090724 -0.010076442 0.56066358 -0.56642306 -0.09370368 0.79918897 0.013006067 0.0069677704
2800000000 0.03643547 -0.03438428 0.33864617 -0.71981645 0.18819825 0.781106 0.012361048 0.00077802164
2810000000 0.011485411 -0.037718683 0.079628743 -0.79076058 0.44500089 0.66699457 -0.00031111055 -0.000391801
2820000000 -0.0041695503 -0.025056617 -0.18870452 -0.77239817 0.6472491 0.47245014 -0.0068889 0.010404062
2830000000 -0.01109205 -0.009095856 -0.43638965 -0.66505474 0.76998115 0.21914881 -0.004081734 0.015042287
2840000000 -0.0091615245 0.013849578 -0.63397563 -0.47991067 0.79688466 -0.060149554 -0.0092613911 0.01418815
2850000000 0.016421728 0.033133347 -0.75663435 -0.23859574 0.7265504 -0.33137757 -0.017949829 0.024355981
2860000000 0.051687684 0.01888313 -0.79013556 0.027853243 0.56621265 -0.56181312 -0.015156292 0.038324252
2870000000 0.053640582 -0.019978752 -0.73424256 0.28889069 0.3366293 -0.72146261 -0.010477955 0.044779509
2880000000 0.020607559 -0.033516441 -0.5942179 0.51691723 0.066879675 -0.79226565 -0.0092803435 0.057668153
2890000000 0.0019937311 -0.0088883257 -0.38619441 0.68266088 -0.21002628 -0.7650336 0.010543553 0.077154025
2900000000 0.018413303 0.011718915 -0.13869314 0.76976794 -0.4586159 -0.64584768 0.049068157 0.071087405
2910000000 0.039477542 0.0049418844 0.1238664 0.77339399 -0.65365309 -0.45076039 0.067794003 0.032643482
2920000000 0.044881862 -0.0124532 0.37591377 0.68919981 -0.77179015 -0.19705561 0.050249226 -0.002121151
2930000000 0.038491327 -0.030005496 0.58598226 0.52308327 -0.79210627 0.083881013 0.020826953 -0.012429916
2940000000 0.014189281 -0.042105075 0.72589594 0.29455563 -0.71199268 0.35259554 -0.0073068431 -0.0068889582
2950000000 -0.019505939 -0.021498635 0.77787215 0.036077354 -0.54507452 0.57389939 -0.031242553 0.021027679
2960000000 -0.014190859 0.0297792 0.74534994 -0.21977042 -0.31706882 0.72515404 -0.018829593 0.068367213
2970000000 0.045053028 0.047146592 0.63445717 -0.45588464 -0.048466802 0.79538488 0.041024845 0.080034554
2980000000 0.085859694 -0.0086859763 0.44416568 -0.64510238 0.23578124 0.76389956 0.079238087 0.020833336
2990000000 0.044895209 -0.06847959 0.20041536 -0.75227004 0.48466036 0.6294812 0.036665052 -0.037982363
3000000000 -0.024524216 -0.053079903 -0.0576065 -0.77308702 0.66832304 0.42553684 -0.025372962 -0.023158792
3010000000 -0.039308961 0.0096578812 -0.30981559 -0.7147035 0.7772842 0.17183827 -0.031118276 0.019903257
3020000000 -0.0021723162 0.045273762 -0.53412825 -0.57331347 0.79027897 -0.10955261 -0.015681101 0.020972835
3030000000 0.031287335 0.042187426 -0.69696951 -0.36118346 0.70528942 -0.37526438 -0.041515138 0.016420422
3040000000 0.05029605 0.033404149 -0.77762347 -0.10731988 0.53591508 -0.60107481 -0.064566903 0.066896357
3050000000 0.071317889 0.017202776 -0.76879847 0.15830472 0.28869447 -0.75573748 -0.0146936 0.12295355
3060000000 0.076886564 -0.01890309 -0.67077243 0.40718862 0.0019636867 -0.80330557 0.061911646 0.099876814
3070000000 0.047367625 -0.047833931 -0.49438402 0.6077376 -0.27334255 -0.74900824 0.073030591 0.029191393
3080000000 0.0073289499 -0.039021961 -0.262288 0.73594522 -0.5136041 -0.60906249 0.026931219 -0.0027149422
3090000000 -0.0068861404 -0.0034525862 -0.0034059035 0.77985257 -0.69342244 -0.39328036 -0.0064366003 0.016914701
3100000000 0.012254703 0.02763696 0.25496069 0.737602 -0.78586245 -0.12759517 -0.0042455932 0.04023689
3110000000 0.049568143 0.031172629 0.48590937 0.61121637 -0.78036106 0.15240036 0.0070966212 0.045693625
3120000000 0.075539373 -0.00027082136 0.66179281 0.41309369 -0.67858618 0.41283074 0.013687697 0.044268183
3130000000 0.060484804 -0.041426353 0.75822073 0.16823885 -0.49310225 0.62186253 0.018601287 0.041997403
3140000000 0.017066116 -0.047335349 0.76835382 -0.089545034 -0.24679525 0.7538507 0.024421224 0.038834032
3150000000 -0.0047094882 -0.014711302 0.69829911 -0.33631486 0.030074026 0.79246688 0.034233429 0.029973079
3160000000 0.011825195 0.010123787 0.55042863 -0.54965472 0.30223003 0.73224229 0.038194906 0.004702582
3170000000 0.028417867 0.0040123099 0.33723888 -0.70226032 0.53597218 0.58181196 0.012944167 -0.025203694
3180000000 0.023002947 -0.0033854947 0.085692927 -0.77528733 0.70361423 0.36129498 -0.035193518 -0.023358328
3190000000 0.01840237 0.0039100987 -0.17759082 -0.7615391 0.78646946 0.095716402 -0.063883714 0.015979601
3200000000 0.021541985 0.0075824484 -0.42249596 -0.65885526 0.77155995 -0.18427621 -0.055965126 0.05581563
3210000000 0.015727542 0.013178416 -0.60011232 -0.50081402 0.67453307 -0.41576615 -0.036935747 0.076253824
3220000000 0.020845013 0.037308242 -0.73426396 -0.27032107 0.48596928 -0.62403393 -0.0068705515 0.089089952
3230000000 0.062556028 0.045677755 -0.78146887 -0.0077019976 0.23718385 -0.75142425 0.034982957 0.072217457
3240000000 0.092640169 -0.0018555336 -0.73828477 0.25304782 -0.037414003 -0.78409714 0.040630139 0.013552567
3250000000 0.051522546 -0.051640194 -0.61240309 0.48600456 -0.30602634 -0.72125733 -0.025255103 -0.017443558
3260000000 -0.01113689 -0.022498783 -0.41225997 0.66425991 -0.53567672 -0.56802285 -0.08406993 0.046611905
3270000000 0.0043074507 0.047856107 -0.16455738 0.7598263 -0.69491744 -0.34729135 -0.035739783 0.13265605
3280000000 0.078694545 0.049571089 0.094466373 0.76811928 -0.77221751 -0.089142434 0.067395985 0.11536594
3290000000 0.10179977 -0.021729166 0.34185556 0.69495624 -0.75992417 0.18547378 0.086335756 0.014967561
3300000000 0.045642532 -0.064644724 0.55385733 0.54260635 -0.6485731 0.44353512 0.0077849636 -0.028933194
3310000000 -0.0059215524 -0.033898599 0.70281905 0.32675892 -0.45092237 0.64251482 -0.041490339 0.022011423
3320000000 -0.00098173879 0.010536428 0.77064204 0.073762536 -0.19851145 0.75872636 -0.0097363042 0.064452939
3330000000 0.025757181 0.021503048 0.7500757 -0.18690951 0.078709997 0.7801789 0.026745565 0.042745128
3340000000 0.041018028 0.013071314 0.64394575 -0.42522568 0.34543529 0.70267028 0.016161235 0.0082499627
3350000000 0.046639696 -0.00034596547 0.46536651 -0.61400503 0.56759495 0.53725648 -0.01135176 0.002407443
3360000000 0.038087025 -0.017564658 0.23495013 -0.73278952 0.71819699 0.30564737 -0.029679192 0.011942496
3370000000 0.011717495 -0.019252958 -0.021633213 -0.76907146 0.77890092 0.036732651 -0.041114446 0.028978553
3380000000 -0.005654939 0.0078564426 -0.27637294 -0.71822852 0.74256128 -0.23623975 -0.035159379 0.051635146
3390000000 0.0093410676 0.038107913 -0.49973828 -0.58504528 0.61334968 -0.47948968 -0.011970519 0.053814489
3400000000 0.039669871 0.042322945 -0.66556203 -0.38547912 0.40819907 -0.66159689 -0.0089372564 0.030067572
3410000000 0.057775181 0.025241734 -0.75612128 -0.14266148 0.15419641 -0.76151359 -0.039526492 0.024390904
3420000000 0.057486627 0.0055342414 -0.76160282 0.11724351 -0.11858056 -0.7689634 -0.058301549 0.060271572
3430000000 0.044531513 -0.004564906 -0.67968202 0.36552608 -0.37881523 -0.68217069 -0.031024583 0.097536474
3440000000 0.03221748 0.0021486306 -0.51816833 0.57232445 -0.59468639 -0.50931579 0.015201117 0.094106115
3450000000 0.038307466 0.013975347 -0.2966561 0.71274346 -0.73740667 -0.27004629 0.03818474 0.058020998
3460000000 0.05297986 0.0048166891 -0.040272716 0.77155042 -0.78683531 0.0053296993 0.026324673 0.021009393
3470000000 0.042507105 -0.016809916 0.22284229 0.73969072 -0.73572958 0.2810728 -0.007886556 0.0084071215
3480000000 0.014520051 -0.0094935829 0.45837256 0.61971337 -0.59035087 0.52178335 -0.035145264 0.02989435
3490000000 0.017652977 0.02038727 0.63829935 0.42978641 -0.3691332 0.69615471 -0.027433179 0.060970109
3500000000 0.047454402 0.01769075 0.74548787 0.19022501 -0.10015795 0.78060442 -0.00051269052 0.063529693
3510000000 0.042561263 -0.015524048 0.7633096 -0.072073556 0.1799922 0.7639733 0.0059801945 0.047115352
3520000000 0.0024536923 -0.012605918 0.69199002 -0.32015654 0.43491223 0.65073049 0.0029226337 0.047913287
3530000000 -0.0030898254 0.030681664 0.54721195 -0.53009284 0.63292682 0.45609683 0.024348913 0.044553388
3540000000 0.034800142 0.043084111 0.33995879 -0.68347031 0.74917346 0.20696762 0.032281242 -0.0024773784
3550000000 0.043573294 0.012905253 0.091993138 -0.75714612 0.77462441 -0.064586572 -0.029372374 -0.040090494
3560000000 0.011401361 0.014726981 -0.16401087 -0.7452355 0.70601231 -0.33271948 -0.10265141 0.014746555
3570000000 0.017021354 0.06147765 -0.40545198 -0.65090334 0.54082978 -0.56149745 -0.073476322 0.1135988
3580000000 0.079299286 0.067669578 -0.60348958 -0.47528875 0.30517307 -0.70865667 0.032010917 0.11880466
3590000000 0.10792184 0.0032757879 -0.72460097 -0.24266565 0.043210838 -0.76318669 0.070529707 0.025463197
3600000000 0.058047883 -0.045857392 -0.76114923 0.010629197 -0.2197727 -0.7315439 0.0034373756 -0.037276033
3610000000 -0.0011936668 -0.019651417 -0.7158885 0.26256797 -0.46062747 -0.61139101 -0.067473114 -0.0042001177
3620000000 -0.00023930513 0.038178392 -0.58735031 0.48818648 -0.64420068 -0.41244304 -0.067316681 0.055287287
3630000000 0.045188375 0.060931429 -0.38884816 0.65551192 -0.74609429 -0.16334617 -0.03556874 0.07595402
3640000000 0.08566498 0.040368963 -0.14844304 0.74527121 -0.75583494 0.10496005 -0.014605215 0.077182807
3650000000 0.099880442 -0.0017835343 0.10532726 0.75125718 -0.67217517 0.35858187 0.0091860127 0.075450055
3660000000 0.080153063 -0.047157608 0.34660935 0.67561126 -0.50864613 0.56749344 0.033206735 0.050426424
3670000000 0.026560316 -0.0676938 0.55301338 0.52564663 -0.28289783 0.71080023 0.025220901 0.011780608
3680000000 -0.029803907 -0.037415743 0.70102769 0.31178358 -0.017536338 0.76708388 -0.0088190129 0.00081854995
3690000000 -0.041655581 0.028375214 0.76654315 0.05651914 0.25090408 0.72502488 -0.026164025 0.019633913
3700000000 0.0034670171 0.076909348 0.73899275 -0.20426403 0.48689684 0.5929516 -0.018240467 0.031002888
3710000000 0.067226984 0.067892626 0.62724 -0.43728518 0.6637091 0.38720223 -0.014560587 0.023556182
3720000000 0.092410482 0.009854177 0.44755846 -0.62104619 0.75752223 0.13108696 -0.027607728 0.02146456
3730000000 0.052186366 -0.039245367 0.21500321 -0.73817551 0.75467384 -0.14079134 -0.035454918 0.040696252
3740000000 -0.0089346003 -0.021717485 -0.048291266 -0.76830322 0.65935445 -0.3940497 -0.012875736 0.061905336
3750000000 -0.013654657 0.038889363 -0.30448166 -0.7033143 0.48282319 -0.60180807 0.029129207 0.044720851
3760000000 0.035703894 0.058696888 -0.51967472 -0.55792218 0.23975223 -0.73601961 0.032806005 -0.018358881
3770000000 0.057718992 0.023415113 -0.67502475 -0.35134014 -0.035489846 -0.7702195 -0.037875872 -0.05685176
3780000000 0.028329264 0.010108463 -0.75193655 -0.1029304 -0.29723936 -0.70725423 -0.11247987 -0.0014204511
3790000000 0.023675965 0.046717562 -0.73816413 0.15419443 -0.52392554 -0.56633568 -0.090933345 0.095574647
3800000000 0.074326113 0.054328877 -0.6427542 0.38788015 -0.69839072 -0.34975657 0.0072199092 0.11154644
3810000000 0.097870439 -0.0044099512 -0.47846493 0.57965654 -0.78023058 -0.074005976 0.049101762 0.030611906
3820000000 0.04532171 -0.046282541 -0.25626281 0.70800996 -0.75040418 0.20793396 -0.0071051628 -0.018888427
3830000000 -0.0047356584 -0.010959858 -0.0027188556 0.75206983 -0.62715393 0.45589218 -0.050030589 0.01831957
